EXPLAIN
TAG	EISPOT
TITLE	LABEL	Potentiostatic EIS	Test Identifier
DATE	LABEL	16/11/2023	Date
TIME	LABEL	10:02:03	Time
NOTES	NOTES	1	Notes...
	
NOMAD
SAMPLEID	 LABEL	CE-NOME_Project_test
ENVIRONMENTID	 LABEL	CE-NOME_Project_test
ECSETUPID	 LABEL	CE-NOME_Project_test
AIRTEMPERATURE	 LABEL	25
AIRPRESSURE	 LABEL	1000
AIRHUMIDITY	 LABEL	50
PSTAT	PSTAT	Hare	Potentiostat
VDC	POTEN	0.00000E+000	T	DC Voltage (V)
FREQINIT	QUANT	2.00000E+006	Initial Freq. (Hz)
FREQFINAL	QUANT	1.00000E+000	Final Freq. (Hz)
PTSPERDEC	QUANT	1.00000E+001	Points/decade
VAC	QUANT	1.00000E+001	AC Voltage (mV rms)
AREA	QUANT	1.00000E+000	Sample Area (cm^2)
SPEED	SELECTOR	1	Optimize for:
DRIFTCOR	SELECTOR	0	THD
THD	SELECTOR	0	Drift Correction
ZGUESS	QUANT	1.00000E+002	Estimated Z (ohms)
EOC	QUANT	0	Open Circuit (V)
SEQUENCER	TOGGLE	TRUE	Run as Sequence
PSTATMODEL	IQUANT	48	Pstat Model
PSTATSECTION	LABEL	IFC1000-06095	Pstat Section
PSTATSERIALNO	LABEL	06095	Pstat Serial Number
CTRLMODE	IQUANT	1	Control Mode
ELECTROMETER	IQUANT	0	RE=0 or CS=1
IESTAB	IQUANT	0	I/E Stability
CASPEED	IQUANT	3	Control Amp Speed
CONVENTION	IQUANT	1	Current Convention
ICHRANGE	IQUANT	2	Ich Range
ICHRANGEMODE	TOGGLE	F	Ich Auto Range
ICHOFFSETENABLE	TOGGLE	T	Ich Offset Enable
ICHOFFSET	QUANT	0	Ich Offset (V)
ICHFILTER	IQUANT	4	Ich Filter
VCHRANGE	IQUANT	2	Vch Range
VCHRANGEMODE	TOGGLE	F	Vch Auto Range
VCHOFFSETENABLE	TOGGLE	T	Vch Offset Enable
VCHOFFSET	QUANT	0	Vch Offset (V)
VCHFILTER	IQUANT	4	Vch Filter
IERANGELOWERLIMIT	IQUANT	4	I/E Range Lower Limit
IERANGEMODE	TOGGLE	F	I/E AutoRange
IERANGE	IQUANT	11	I/E Range
ACHSELECT	IQUANT	0	Ach Select
ACHRANGE	IQUANT	2	Ach Range
ACHOFFSETENABLE	TOGGLE	F	Ach Offset Enable
ACHOFFSET	QUANT	0	Ach Offset (V)
ACHFILTER	IQUANT	3	Ach Filter
SENSECABLEID	IQUANT	14	Sense Cable ID
PWRCABLEID	IQUANT	14	Power Cable ID
DCCALDATE	LABEL	1/11/2023	DC Calibration Date
ACCALDATE	LABEL	2/24/2014	AC Calibration Date
FRAMEWORKVERSION	LABEL	7.10.0	Framework Version
INSTRUMENTVERSION	LABEL	4.71	Instrument Version
COMMVERSION	LABEL	3.10	Communications Version
CPUPLDVERSION	LABEL	1.10	CPU PLD Version
CTRLPLDVERSION	LABEL	0.00	CTRL PLD Version
PSTATPLDVERSION	LABEL	0.00	PSTAT PLD Version
ZCURVE	TABLE
	Pt	Time	Freq	Zreal	Zimag	Zsig	Zmod	Zphz	Idc	Vdc	IERange	Imod	Vmod	Temp
	#	s	Hz	ohm	ohm	V	ohm	°	A	V	#	A	V	°C
	0	4	1000020	7.281014	-1.217636	1	7.382127	-9.493971	-0.0001755	-0.0011003	10	0.0024935	0.0176905	0
	1	6	794355.5	6.816936	-0.8171919	1	6.865742	-6.83581	-0.0001387	-0.0009691	10	0.0021543	0.0143719	0
	2	8	630996.1	6.542335	-0.5812312	1	6.568102	-5.076918	-0.0001406	-0.0009305	10	0.0020936	0.0134611	0
	3	10	501269.5	6.366374	-0.4290743	1	6.380817	-3.855731	-0.0001367	-0.0008973	10	0.0020636	0.0129536	0
	4	12	398144.5	6.256761	-0.3237419	1	6.265131	-2.961998	-0.0001299	-0.0008825	10	0.0020409	0.0126215	0
	5	13	316230.5	6.188369	-0.2484375	1	6.193354	-2.298955	-0.0001325	-0.0009072	10	0.0020717	0.0126951	0
	6	15	251191.4	6.144654	-0.1943869	1	6.147728	-1.811955	-0.000127	-0.0008853	10	0.0020723	0.0126283	0
	7	17	199628.9	6.114173	-0.1536307	1	6.116103	-1.439367	-0.0001259	-0.0008865	10	0.0020723	0.012582	0
	8	19	158496.1	6.098799	-0.1279305	1	6.100141	-1.201679	-0.0001294	-0.0009199	10	0.002074	0.0125766	0
	9	21	125918	6.08214	-0.1044663	1	6.083037	-0.98401	-0.0001289	-0.0009233	10	0.0020504	0.0124145	0
	10	22	100019.5	6.115965	-0.045421	1	6.116134	-0.4255067	-6.205204E-006	2.565575E-006	10	0.0019469	0.0118655	0
	11	24	79511.72	6.099961	-0.0411231	1	6.1001	-0.3862554	-5.817001E-006	3.538298E-007	10	0.002006	0.0122059	0
	12	26	63105.47	6.082128	-0.0462213	1	6.082303	-0.4354121	-5.208996E-006	9.624764E-007	10	0.0019489	0.0118331	0
	13	28	50214.84	6.077487	-0.0538374	1	6.077725	-0.5075415	-5.308682E-006	-6.87268E-006	10	0.0018924	0.0114876	0
	14	30	39902.34	6.07631	-0.0639841	1	6.076646	-0.6033072	-4.559644E-006	3.100868E-007	10	0.0018408	0.0111772	0
	15	31	31699.22	6.077605	-0.0769984	1	6.078093	-0.7258527	-4.698184E-006	-6.939947E-006	10	0.0017939	0.0108979	0
	16	33	25136.72	6.082053	-0.0923628	1	6.082755	-0.8700339	-4.019891E-006	-2.537927E-007	10	0.0017486	0.0106325	0
	17	35	19980.47	6.086984	-0.1109518	1	6.087995	-1.044255	-3.944165E-006	-2.298619E-006	10	0.0017139	0.0104319	0
	18	37	15878.91	6.09428	-0.1322272	1	6.095715	-1.242948	-3.681186E-006	-2.606663E-006	10	0.0016888	0.010293	0
	19	39	12597.66	6.103213	-0.1583506	1	6.105267	-1.486231	-3.4529E-006	-1.271877E-006	10	0.001669	0.0101887	0
	20	40	10019.53	6.114234	-0.1897648	1	6.117178	-1.777693	-3.234636E-006	-9.315263E-007	10	0.0016563	0.0101312	0
	21	42	7928.241	6.127941	-0.2274629	1	6.132161	-2.125785	1.121536E-005	0.0001451	10	0.0016448	0.010086	0
	22	44	6307.871	6.143571	-0.2708992	1	6.149541	-2.524807	1.12926E-005	0.0001448	10	0.0016329	0.0100415	0
	23	46	5034.722	6.149208	-0.3820954	1	6.161067	-3.555635	-2.637764E-006	-5.985496E-005	10	0.001581	0.0097404	0
	24	47	3993.056	6.178922	-0.4326164	1	6.194048	-4.005021	-2.526556E-006	-6.063635E-005	10	0.0016443	0.0101847	0
	25	49	3144.055	6.210656	-0.5014741	1	6.230869	-4.616283	-2.662578E-006	-6.048565E-005	10	0.0016188	0.0100867	0
	26	51	2519.531	6.242868	-0.5815407	1	6.269896	-5.321905	-2.430394E-006	-6.093158E-005	10	0.0015991	0.010026	0
	27	53	2000.762	6.281706	-0.6842139	1	6.318859	-6.216246	-2.328378E-006	-6.009553E-005	10	0.001584	0.0100088	0
	28	54	1580.669	6.328375	-0.8127884	1	6.380357	-7.318749	-2.298583E-006	-6.049453E-005	10	0.0015694	0.0100135	0
	29	56	1253.634	6.381899	-0.966361	1	6.454648	-8.610442	-2.282083E-006	-6.120739E-005	10	0.0015515	0.0100142	0
	30	58	1000.702	6.443069	-1.146941	1	6.544358	-10.09359	-2.046633E-006	-6.00672E-005	10	0.0015255	0.0099831	0
	31	60	790.0281	6.514823	-1.375996	1	6.65855	-11.92616	-1.859782E-006	-5.864721E-005	10	0.0015035	0.0100114	0
	32	61	628.811	6.594257	-1.642991	1	6.795856	-13.99066	-2.033393E-006	-6.151261E-005	10	0.0014682	0.0099774	0
	33	63	502.2321	6.744212	-1.837893	1	6.990153	-15.24375	-2.037708E-006	-7.281249E-005	10	0.0013696	0.0095739	0
	34	65	400.1524	6.825977	-2.250413	1	7.187373	-18.24655	-2.010513E-006	-7.230593E-005	10	0.0014293	0.0102726	0
	35	67	315.5048	6.92627	-2.76952	1	7.459454	-21.79437	-2.032519E-006	-7.352858E-005	10	0.0013543	0.0101023	0
	36	68	252.0161	7.033219	-3.365926	1	7.797155	-25.57463	-1.752716E-006	-7.226459E-005	10	0.0012842	0.010013	0
	37	70	200.3205	7.148991	-4.111675	1	8.247057	-29.90495	-1.68504E-006	-7.186159E-005	10	0.0012142	0.0100135	0
	38	72	158.0056	7.280164	-5.069509	1	8.871342	-34.85125	-1.703186E-006	-7.159581E-005	10	0.001122	0.0099535	0
	39	73	125.558	7.420292	-6.227353	1	9.68714	-40.00448	-1.766678E-006	-7.37254E-005	10	0.0010258	0.0099372	0
	40	75	99.734	7.577099	-7.675436	1	10.7854	-45.36939	-1.52699E-006	-7.106797E-005	10	0.00091	0.0098148	0
	41	77	79.44915	7.751122	-9.455572	1	12.22652	-50.65711	-2.523815E-006	-0.0001279	10	0.0008417	0.0102911	0
	42	79	62.91946	7.974485	-11.73817	1	14.19074	-55.80924	-2.048653E-006	-0.0001243	10	0.0007047	0.0100004	0
	43	81	49.86702	8.249599	-14.59437	1	16.7646	-60.52231	-2.091418E-006	-0.0001262	10	0.0005966	0.010002	0
	44	82	38.42213	8.624046	-18.61744	1	20.51787	-65.14529	6.589838E-006	-0.0001154	9	0.0004875	0.0100024	0
	45	84	31.25	9.016375	-22.61798	1	24.34888	-68.26592	6.474104E-006	-0.0001162	9	0.0004107	0.0099993	0
	46	86	24.93351	9.5711	-28.01861	1	29.60825	-71.13995	6.443666E-006	-0.0001153	9	0.0003377	0.0099984	0
	47	88	20.03205	10.22952	-34.42614	1	35.91381	-73.451	6.588325E-006	-0.0001145	9	0.0002784	0.0099998	0
	48	90	15.625	11.20155	-43.52009	1	44.93855	-75.56605	6.5638E-006	-0.0001161	9	0.0002225	0.0099987	0
	49	92	12.46675	12.33518	-53.83543	1	55.23052	-77.09472	6.621779E-006	-0.0001156	9	0.0001811	0.0099999	0
	50	94	9.9734	13.75491	-66.40861	1	67.81815	-78.29806	6.674172E-006	-0.0001159	9	0.0001474	0.0099994	0
	51	96	7.971939	15.56707	-81.98196	1	83.44685	-79.24844	6.712701E-006	-0.0001168	9	0.0001198	0.0100005	0
	52	98	6.351626	17.89874	-101.4764	1	103.0429	-79.99688	6.758423E-006	-0.0001173	9	0.000097	0.0099998	0
	53	101	5.013369	21.03131	-126.6708	1	128.4049	-80.57311	6.869857E-006	-0.0001165	9	7.787799E-005	0.0099999	0
	54	104	3.985969	24.9375	-157.0343	1	159.0021	-80.97662	6.830758E-006	-0.0001169	9	6.289119E-005	0.0099998	0
	55	107	3.175813	29.95326	-194.3663	1	196.6608	-81.23923	6.931774E-006	-0.0001167	9	5.08504E-005	0.0100003	0
	56	110	2.516103	35.27385	-238.7086	1	241.3008	-81.59426	1.00419E-006	-0.000135	8	4.026407E-005	0.0097157	0
	57	114	1.99553	44.21708	-298.5155	1	301.7725	-81.57443	7.895171E-007	-0.0001355	8	3.371538E-005	0.0101744	0
	58	118	1.587906	55.54232	-371.0943	1	375.2278	-81.48763	7.290969E-007	-0.0001347	8	2.683561E-005	0.0100695	0
	59	123	1.258052	70.43356	-461.1954	1	466.5427	-81.3169	7.711431E-007	-0.0001349	8	2.149396E-005	0.0100279	0
	60	129	0.997765	89.91506	-572.2136	1	579.2349	-81.06982	8.161173E-007	-0.0001347	8	1.72831E-005	0.010011	0
